!Keysight Technologies,N5245A,MY52442000,A.10.65.16
!Date: Tuesday, January 04, 2022 16:42:59
!Correction: S11(Full 2 Port(1,2)) 
!S21(Full 2 Port(1,2)) 
!S12(Full 2 Port(1,2)) 
!S22(Full 2 Port(1,2)) 
!S2P File: Measurements: S11, S21, S12, S22:
# Hz S  dB   R 50
10000000 -9.9191418 75.022003 20.843771 -134.07733 -27.659075 48.462734 -14.719565 127.76522
20000000 -16.148329 41.319351 21.733601 -156.54015 -26.65966 25.461622 -16.283308 153.29312
30000000 -19.393394 20.975744 22.01495 -164.71695 -26.135418 16.922813 -16.458324 154.74051
40000000 -21.323786 6.2535963 22.188648 -169.45567 -25.928072 12.847354 -16.919291 153.69299
50000000 -22.939022 -3.5486021 22.298807 -172.98151 -25.801098 9.0651789 -17.375586 152.25613
60000000 -24.203907 -9.529891 22.361805 -175.61684 -25.725485 6.5618324 -17.875179 151.82176
70000000 -24.950485 -16.014204 22.419643 -177.89566 -25.632801 3.8116367 -18.301466 151.59389
80000000 -25.76231 -19.574268 22.464029 -179.84883 -25.56465 2.6702051 -18.67617 151.17024
90000000 -26.13698 -23.764029 22.484718 178.37343 -25.516386 0.51292884 -18.930532 151.8519
100000000 -26.779333 -24.450277 22.512524 176.79218 -25.522139 -0.84130657 -19.119242 151.19093
200000000 -28.521284 -38.106277 22.569925 164.15875 -25.472231 -12.959628 -20.234888 147.27101
300000000 -28.323376 -47.932022 22.57049 153.61987 -25.387211 -21.861994 -20.808077 139.97128
400000000 -27.584524 -58.628765 22.557838 143.61443 -25.45849 -30.640543 -21.058851 130.89848
500000000 -26.985193 -66.421082 22.553251 133.84175 -25.45256 -38.976788 -21.322161 120.048
600000000 -26.189945 -76.436722 22.542051 124.25379 -25.437372 -47.40089 -21.733198 108.94227
700000000 -25.308157 -85.557755 22.528097 114.65665 -25.452751 -55.800064 -22.038822 97.051537
800000000 -24.339422 -94.561287 22.522188 105.10657 -25.495615 -63.846478 -22.474838 85.095406
900000000 -23.492264 -102.70699 22.509876 95.600052 -25.529778 -72.144493 -22.885715 71.530563
1000000000 -22.539993 -111.43579 22.504356 86.10495 -25.575073 -80.194908 -23.322315 57.503139
1100000000 -21.711954 -119.38805 22.492514 76.64164 -25.580359 -88.273819 -23.751635 42.513046
1200000000 -20.874521 -127.77246 22.484592 67.163658 -25.59341 -96.383362 -24.15589 26.90683
1300000000 -20.12624 -136.06171 22.473003 57.688046 -25.612486 -104.439 -24.339554 11.340811
1400000000 -19.430347 -144.28612 22.462872 48.227421 -25.618307 -112.56868 -24.412725 -5.6431499
1500000000 -18.710957 -152.74448 22.451073 38.763237 -25.641708 -120.67545 -24.245089 -21.994589
1600000000 -18.046883 -161.08835 22.441166 29.299728 -25.682867 -128.78139 -24.099274 -38.79818
1700000000 -17.471979 -169.4921 22.4268 19.84091 -25.73004 -137.00069 -23.670006 -54.913593
1800000000 -16.927284 -177.65512 22.41279 10.419068 -25.751781 -144.77551 -23.216345 -69.879417
1900000000 -16.372845 174.09892 22.398905 0.98418671 -25.774912 -153.18637 -22.666162 -84.642944
2000000000 -15.875484 165.78241 22.386335 -8.4658346 -25.844866 -160.8524 -22.025583 -97.990273
2100000000 -15.425535 157.55943 22.375523 -17.9147 -25.872042 -169.21432 -21.43922 -111.02937
2200000000 -14.991423 149.23636 22.353951 -27.332083 -25.881674 -176.8799 -20.910378 -123.03478
2300000000 -14.625978 140.711 22.339239 -36.745232 -25.940456 174.7852 -20.323809 -134.8257
2400000000 -14.249022 132.41313 22.320925 -46.160713 -25.968733 166.85197 -19.867235 -145.4413
2500000000 -13.942827 123.64604 22.309641 -55.565098 -26.018528 158.75095 -19.389076 -156.14667
2600000000 -13.684282 115.02686 22.294336 -64.937042 -26.101336 151.07254 -19.09569 -166.3452
2700000000 -13.468554 106.53625 22.283331 -74.348755 -26.132734 142.8719 -18.81279 -176.55782
2800000000 -13.238225 98.036163 22.274044 -83.72847 -26.159126 135.08954 -18.53932 174.05432
2900000000 -13.08959 89.323402 22.262035 -93.124428 -26.172516 127.17669 -18.36763 164.88199
3000000000 -12.936205 80.720512 22.249382 -102.5609 -26.246515 119.43498 -18.141384 155.6862
3100000000 -12.803007 72.297417 22.242498 -111.93685 -26.289228 111.27244 -18.027292 146.35608
3200000000 -12.700941 63.856308 22.230988 -121.34868 -26.287348 103.40376 -17.915663 137.07146
3300000000 -12.621869 55.529785 22.220705 -130.76003 -26.315329 95.063644 -17.861618 128.38237
3400000000 -12.567239 46.999313 22.219265 -140.16495 -26.336349 87.245972 -17.77363 119.8337
3500000000 -12.54589 38.638134 22.209969 -149.5909 -26.421938 79.537041 -17.773993 111.35213
3600000000 -12.534887 30.374907 22.200678 -159.02611 -26.468 71.486458 -17.696461 102.61845
3700000000 -12.524444 22.170164 22.198891 -168.43852 -26.458567 63.658554 -17.747232 94.319984
3800000000 -12.524801 14.067678 22.197392 -177.87741 -26.518007 55.668785 -17.772097 86.127388
3900000000 -12.575966 5.6037889 22.194645 172.67685 -26.573996 47.575459 -17.840256 77.641083
4000000000 -12.637594 -2.58215 22.192152 163.2005 -26.597183 40.012127 -17.966562 69.921967
4100000000 -12.726611 -10.804821 22.185623 153.74031 -26.540512 31.640411 -18.093811 61.726784
4200000000 -12.807821 -18.836103 22.182016 144.27737 -26.636694 24.076149 -18.270267 54.255444
4300000000 -12.933451 -26.738134 22.181858 134.81256 -26.614773 15.760956 -18.451225 46.774143
4400000000 -13.069434 -35.008629 22.177647 125.34724 -26.663324 7.9651184 -18.587215 39.134113
4500000000 -13.203228 -42.85313 22.181038 115.85299 -26.695833 -0.11571668 -18.784395 31.389309
4600000000 -13.341292 -50.616627 22.182013 106.3327 -26.755985 -8.2132444 -19.010399 24.070992
4700000000 -13.540255 -58.330685 22.187195 96.854263 -26.76944 -15.968201 -19.176996 16.977644
4800000000 -13.687215 -66.07708 22.197598 87.306007 -26.756605 -24.034767 -19.347998 9.9215345
4900000000 -13.863595 -74.073402 22.205187 77.785286 -26.84141 -32.05423 -19.56732 2.7467754
5000000000 -14.066167 -81.831657 22.214081 68.195633 -26.871422 -39.972694 -19.722794 -3.657382
5100000000 -14.284692 -89.434204 22.224745 58.62915 -26.899187 -47.82793 -19.885561 -10.251017
5200000000 -14.510054 -97.428787 22.240786 48.982994 -26.910526 -56.420624 -20.033257 -16.548784
5300000000 -14.740167 -105.24799 22.254559 39.330189 -26.942596 -64.336342 -20.154442 -22.739601
5400000000 -14.991307 -113.00848 22.260822 29.622498 -26.94557 -72.547615 -20.259315 -29.220915
5500000000 -15.316287 -120.85058 22.271576 19.959148 -26.995157 -80.447685 -20.397932 -34.691288
5600000000 -15.588507 -128.50124 22.28019 10.211658 -26.989931 -88.725815 -20.428267 -41.157795
5700000000 -15.934382 -136.44221 22.296247 0.43987355 -27.028677 -96.968933 -20.58625 -46.561367
5800000000 -16.291843 -144.53197 22.304356 -9.3714991 -27.123634 -104.78481 -20.58954 -51.422142
5900000000 -16.685457 -152.79903 22.311903 -19.173721 -27.098675 -112.82545 -20.624506 -56.785423
6000000000 -17.122572 -161.09654 22.310335 -29.064095 -27.152704 -121.28852 -20.67008 -61.529556
6100000000 -17.660234 -169.07306 22.320721 -38.867523 -27.155981 -129.5545 -20.602722 -65.847473
6200000000 -18.219278 -177.36778 22.331003 -48.811584 -27.208139 -137.66048 -20.404587 -70.773064
6300000000 -18.7943 174.51752 22.335909 -58.789284 -27.224442 -145.4563 -20.287317 -75.534355
6400000000 -19.34866 165.36232 22.32881 -68.781006 -27.288326 -154.06197 -20.069613 -80.577385
6500000000 -20.09557 156.30524 22.324125 -78.741753 -27.335546 -162.23204 -19.803623 -85.195839
6600000000 -20.909536 147.02646 22.315367 -88.776726 -27.326643 -170.72688 -19.431219 -90.672897
6700000000 -21.965549 136.45924 22.304945 -98.791611 -27.424719 -178.35925 -19.005436 -96.391121
6800000000 -23.056124 126.67791 22.301199 -108.86644 -27.422026 172.99445 -18.615761 -102.70217
6900000000 -24.356621 115.10877 22.291658 -118.96026 -27.468334 164.57399 -18.263504 -108.98653
7000000000 -26.021305 103.7358 22.282692 -129.07751 -27.520618 156.49742 -17.864576 -115.37461
7100000000 -27.890667 90.063026 22.272257 -139.31911 -27.590988 148.27402 -17.514881 -122.77177
7200000000 -29.46829 73.882553 22.247618 -149.61798 -27.581638 139.59959 -17.222853 -130.59129
7300000000 -31.20797 52.666107 22.21529 -159.88986 -27.644272 131.47267 -16.963955 -137.98944
7400000000 -32.614296 20.088943 22.173672 -170.17744 -27.727186 122.71774 -16.760221 -145.57907
7500000000 -32.191219 -13.955766 22.132729 179.53 -27.797075 113.99515 -16.477633 -152.9133
7600000000 -30.414553 -40.033157 22.084457 169.25958 -27.877729 105.7609 -16.306843 -160.57527
7700000000 -28.337021 -63.4473 22.043736 158.96571 -27.983355 96.461845 -16.03624 -168.79897
7800000000 -26.388792 -80.489822 21.997538 148.62555 -28.05233 88.812546 -15.834955 -177.37965
7900000000 -24.945757 -94.759178 21.949764 138.18518 -28.112114 80.070686 -15.653176 173.49966
8000000000 -23.619125 -107.32901 21.881504 127.73331 -28.209074 71.700668 -15.557074 164.23241
8100000000 -22.446455 -118.5278 21.811378 117.34085 -28.291901 63.080048 -15.535323 155.14403
8200000000 -21.347515 -128.54526 21.747931 106.96051 -28.408569 53.975105 -15.433005 146.24097
8300000000 -20.426376 -138.71913 21.682011 96.483864 -28.582335 45.621117 -15.35709 136.34248
8400000000 -19.602509 -148.9305 21.608356 85.960571 -28.649567 37.171185 -15.339487 126.13313
8500000000 -19.042635 -158.34824 21.534254 75.426376 -28.758011 28.822842 -15.435122 115.74824
8600000000 -18.366549 -167.04605 21.444016 64.875023 -28.856386 20.401571 -15.613926 105.03139
8700000000 -17.846775 -175.97301 21.352747 54.28796 -28.973717 11.920177 -15.786756 94.185249
8800000000 -17.285467 175.20258 21.258905 43.703609 -29.193216 2.8478014 -16.019066 82.723404
8900000000 -16.766649 166.12779 21.163305 33.048618 -29.283813 -5.8661442 -16.242762 71.208107
9000000000 -16.418947 157.74261 21.06686 22.391998 -29.470005 -14.201811 -16.606026 59.355648
9100000000 -16.063244 149.18733 20.961803 11.705789 -29.611595 -22.584848 -17.014887 45.964916
9200000000 -15.718934 141.0341 20.845308 0.97211754 -29.741007 -31.088709 -17.389503 32.65749
9300000000 -15.3912 133.22591 20.727764 -9.8355141 -29.912901 -40.003071 -17.838678 18.292036
9400000000 -14.985368 125.20835 20.60495 -20.716681 -30.042177 -48.524918 -18.349445 2.8815415
9500000000 -14.616681 117.27094 20.477062 -31.635876 -30.22183 -57.552822 -18.738697 -12.969478
9600000000 -14.311777 109.06522 20.327585 -42.575623 -30.436148 -66.541962 -19.14776 -30.900904
9700000000 -13.952381 100.65763 20.164652 -53.607796 -30.729479 -74.815849 -19.320713 -50.088913
9800000000 -13.662732 92.580643 19.995861 -64.62825 -30.882803 -84.547241 -19.557455 -70.039452
9900000000 -13.311936 85.155396 19.821362 -75.614754 -31.089123 -92.71946 -19.453634 -91.241196
10000000000 -12.975372 77.276382 19.628111 -86.660217 -31.287817 -101.9303 -19.178726 -111.24021
10100000000 -12.606101 69.439812 19.430159 -97.763199 -31.535442 -109.5096 -18.630913 -132.08527
10200000000 -12.178433 61.487141 19.211718 -108.91924 -31.780886 -118.51733 -17.849884 -151.86661
10300000000 -11.790906 53.395847 18.988586 -119.99851 -31.974667 -127.81064 -17.025553 -170.11737
10400000000 -11.340154 45.431797 18.762211 -131.09059 -32.258606 -135.97144 -16.184706 172.13539
10500000000 -10.887632 37.330765 18.529007 -142.31569 -32.593632 -145.2709 -15.312736 155.26463
10600000000 -10.392303 29.041155 18.287884 -153.64194 -32.728119 -154.0584 -14.466193 139.70267
10700000000 -9.9155302 20.474497 18.02787 -165.03511 -33.005672 -162.8918 -13.614994 124.83147
10800000000 -9.4279871 11.821202 17.747297 -176.56145 -33.284111 -172.56311 -12.757037 110.28042
10900000000 -8.9398623 2.9033844 17.428549 171.79863 -33.761353 178.34529 -12.013972 96.412041
11000000000 -8.4830027 -6.1878834 17.066488 160.15396 -34.040882 168.60271 -11.32656 82.982262
11100000000 -8.0547132 -15.160795 16.663424 148.51816 -34.457047 159.18204 -10.672954 69.71566
11200000000 -7.6414194 -24.561508 16.220755 136.98944 -34.902447 150.45354 -10.041764 56.707474
11300000000 -7.237195 -33.640938 15.757171 125.65286 -35.426876 140.70253 -9.4872122 44.381992
11400000000 -6.878684 -42.851578 15.257155 114.42239 -35.887253 132.92902 -8.9711819 32.025539
11500000000 -6.5401402 -51.982735 14.7383 103.31081 -36.635994 124.03091 -8.5109711 20.021637
11600000000 -6.2234011 -61.037247 14.190231 92.36467 -37.088852 114.84835 -8.0731306 8.2457991
11700000000 -5.9339371 -70.106621 13.619456 81.616058 -37.762463 106.12598 -7.7039237 -3.2161751
11800000000 -5.665153 -79.132591 13.023816 71.004929 -38.403824 98.743286 -7.3664799 -14.307191
11900000000 -5.4003663 -87.940514 12.406368 60.600594 -39.072861 90.315689 -7.0394764 -25.329985
12000000000 -5.1713524 -96.583168 11.772085 50.527088 -39.69418 82.508423 -6.7621059 -36.117065
12500000000 -4.3605494 -137.66212 8.8267775 4.7070837 -42.583805 50.631275 -5.9528852 -85.01741
13000000000 -3.5321431 -176.44556 6.5599618 -39.881649 -45.169651 12.669617 -5.2338643 -124.51192
13500000000 -2.966306 146.31932 3.9507148 -85.960106 -48.838451 -30.025547 -4.1995649 -165.95271
14000000000 -2.5390851 110.66801 1.3346237 -128.15735 -52.824253 -67.426819 -3.715028 154.98599
14500000000 -2.2267425 75.923012 -1.0585562 -169.35887 -55.746136 -156.90804 -3.3116539 117.28544
15000000000 -1.9995903 41.798763 -3.4163356 150.94693 -54.27161 101.71093 -3.0682614 80.448616
15500000000 -1.7912983 8.1970625 -5.266326 113.63765 -49.032948 7.7227335 -2.9881356 46.275673
16000000000 -1.6888633 -26.164011 -6.9595013 72.064514 -46.689926 -34.493092 -2.5880761 12.227709
16500000000 -1.7830818 -60.639675 -8.6863766 30.089798 -44.856628 -96.703835 -2.2808523 -21.833691
17000000000 -2.0423522 -93.912926 -11.00278 -13.910285 -44.883606 -154.28215 -2.000586 -55.903461
17500000000 -2.0302563 -127.43839 -13.499969 -53.070881 -47.064579 151.15718 -1.7997955 -89.479752
18000000000 -2.285064 -165.41719 -15.553624 -95.331909 -47.525768 98.152794 -1.6120188 -123.73569
18500000000 -3.1624382 154.97714 -18.765261 -147.02939 -48.218761 36.163639 -1.5302079 -158.21675
19000000000 -4.4449091 116.48566 -26.619801 149.39386 -48.708958 -38.027493 -1.4955324 167.14853
19500000000 -5.0901303 78.009224 -31.648474 -28.109371 -53.581585 -116.2522 -1.3977144 131.48779
20000000000 -5.6129556 32.704945 -21.683363 -105.21108 -54.913643 134.74673 -1.4353403 93.365601
20500000000 -6.069068 -15.454239 -17.468292 -160.17914 -60.402393 46.030804 -1.6755242 53.988724
21000000000 -6.9678345 -61.853748 -15.01973 146.54913 -46.895878 -26.494568 -1.730418 15.710952
21500000000 -8.0562601 -98.356773 -13.655551 89.793266 -44.544991 -87.851105 -1.8503814 -25.340729
22000000000 -8.5746975 -120.58958 -13.302421 33.423958 -41.999153 -150.60719 -2.1809969 -63.885349
22500000000 -7.607091 -138.45265 -13.720899 -21.492212 -41.759125 164.97791 -2.2466969 -100.78838
23000000000 -6.0461812 -158.80949 -14.5127 -75.453827 -38.365986 126.62502 -2.5596251 -136.64227
23500000000 -4.4244556 178.24774 -15.981277 -130.73778 -36.258507 79.585701 -3.0501995 -169.26567
24000000000 -3.3090963 152.36374 -17.960926 179.52417 -35.795303 31.627573 -3.5127552 161.04613
24500000000 -2.7094493 127.71848 -19.767151 131.36794 -34.885662 -4.0954781 -4.2864819 133.3147
25000000000 -2.3798845 104.6753 -21.00128 84.947472 -34.572948 -44.843334 -4.6724987 109.40407
25500000000 -2.1738493 81.63607 -21.458225 40.997425 -34.956047 -75.439095 -5.2590261 78.725212
26000000000 -2.3931131 58.310623 -19.192036 -28.170616 -29.526871 -118.3649 -9.1803789 57.746483
